! Touchstone file exported from HFSS 2022.1.0
!        File:           C:/Users/Hamza Safder/Downloads/PSF-V2 with holder (4).aedt
!        Generated:      12:48:04 AM  Sep 30, 2023
!        Design:         HFSSDesign1
!        Project:        PSF-V2 with holder (4)
!        Setup:          Setup1
!        Solution:       Sweep
!
! Variables:
!        WS = 5mm
!        ax = 15mm
!        az = 3.18mm
!        azd = 3mm
!        bx = 13mm
!        bx2 = 12.5mm
!        bx3 = 3.16mm
!        cin = 27.8mm
!        gap = 0.7mm
!        mid = 3mm
!        shift = 21.24mm
!        strip_1L = 18.62mm
!        substrate_L = 80mm
!        substrate_W = 70mm
!        t = 3mm
!        w50 = 9.18mm
!        wt = 1mm
!        xs = 0.8mm
!        zzz = 8mm
!
# GHz S MA R 50.000000
! Terminal data exported
! Port[1] = ground_T1
! Port[2] = ground_T2
2                              0.960520766798951 150.762622602402 0.0313952116847083 -165.0270635171  0.0313952116847082 -165.0270635171  0.960175249540739 150.783553350442 
! Gamma         0                0                0                0                
! Port Impedance         50               0                50               0                
2.002                          0.960472839978412 150.544116810815 0.0313937294298129 -165.319424524778 0.0313937294298128 -165.319424524778 0.96012725084541 150.565139298905 
! Gamma         0                0                0                0                
! Port Impedance         50               0                50               0                
2.004                          0.960424838107543 150.325542897214 0.0313920925131725 -165.611967823608 0.0313920925131724 -165.611967823608 0.960079177294737 150.346657355813 
! Gamma         0                0                0                0                
! Port Impedance         50               0                50               0                
2.006                          0.960376760557698 150.106900717581 0.0313903004022246 -165.904695434824 0.0313903004022245 -165.904695434824 0.960031028234004 150.128107378205 
! Gamma         0                0                0                0                
! Port Impedance         50               0                50               0                
2.008                          0.960328606699013 149.888190128088 0.0313883525620823 -166.197609401322 0.0313883525620822 -166.197609401322 0.959982803007269 149.909489223313 
! Gamma         0                0                0                0                
! Port Impedance         50               0                50               0                
2.01                           0.960280375900407 149.669410985098 0.0313862484555233 -166.49071178796 0.0313862484555232 -166.49071178796 0.959934500957351 149.690802748563 
! Gamma         0                0                0                0                
! Port Impedance         50               0                50               0                
2.012                          0.960232067529572 149.450563145157 0.0313839875429791 -166.784004681859 0.031383987542979 -166.784004681859 0.959886121425837 149.472047811568 
! Gamma         0                0                0                0                
! Port Impedance         50               0                50               0                
2.014                          0.960183680952973 149.231646464992 0.0313815692825244 -167.077490192708 0.0313815692825243 -167.077490192708 0.959837663753068 149.25322427013  
! Gamma         0                0                0                0                
! Port Impedance         50               0                50               0                
2.016                          0.960135215535842 149.012660801511 0.0313789931298671 -167.371170453081 0.031378993129867 -167.371170453081 0.959789127278144 149.03433198223  
! Gamma         0                0                0                0                
! Port Impedance         50               0                50               0                
2.018                          0.960086670642175 148.793606011796 0.0313762585383381 -167.665047618749 0.0313762585383381 -167.665047618749 0.959740511338915 148.815370806031 
! Gamma         0                0                0                0                
! Port Impedance         50               0                50               0                
2.02                           0.960038045634726 148.574481953102 0.0313733649588818 -167.959123869003 0.0313733649588817 -167.959123869003 0.959691815271976 148.596340599869 
! Gamma         0                0                0                0                
! Port Impedance         50               0                50               0                
2.022                          0.959989339874999 148.355288482852 0.0313703118400464 -168.25340140698 0.0313703118400463 -168.25340140698 0.959643038412666 148.377241222257 
! Gamma         0                0                0                0                
! Port Impedance         50               0                50               0                
2.024                          0.959940552723249 148.136025458633 0.031367098627975 -168.547882459998 0.0313670986279749 -168.547882459998 0.959594180095058 148.158072531872 
! Gamma         0                0                0                0                
! Port Impedance         50               0                50               0                
2.026                          0.959891683538468 147.916692738196 0.0313637247663964 -168.842569279889 0.0313637247663964 -168.842569279889 0.959545239651957 147.938834387559 
! Gamma         0                0                0                0                
! Port Impedance         50               0                50               0                
2.028                          0.959842731678384 147.697290179448 0.0313601896966173 -169.137464143342 0.0313601896966173 -169.137464143342 0.959496216414894 147.719526648325 
! Gamma         0                0                0                0                
! Port Impedance         50               0                50               0                
2.03                           0.959793696499454 147.477817640449 0.0313564928575133 -169.432569352252 0.0313564928575133 -169.432569352253 0.959447109714118 147.500149173334 
! Gamma         0                0                0                0                
! Port Impedance         50               0                50               0                
2.032                          0.959744577356855 147.258274979411 0.0313526336855216 -169.727887234076 0.0313526336855215 -169.727887234076 0.95939791887859 147.280701821902 
! Gamma         0                0                0                0                
! Port Impedance         50               0                50               0                
2.034                          0.959695373604478 147.038662054689 0.0313486116146332 -170.023420142183 0.0313486116146331 -170.023420142184 0.959348643235976 147.061184453497 
! Gamma         0                0                0                0                
! Port Impedance         50               0                50               0                
2.036                          0.959646084594919 146.818978724783 0.0313444260763861 -170.31917045623 0.0313444260763861 -170.31917045623 0.959299282112643 146.841596927733 
! Gamma         0                0                0                0                
! Port Impedance         50               0                50               0                
2.038                          0.959596709679473 146.599224848328 0.0313400764998588 -170.615140582524 0.0313400764998587 -170.615140582524 0.959249834833645 146.621939104364 
! Gamma         0                0                0                0                
! Port Impedance         50               0                50               0                
2.04                           0.959547248208123 146.379400284094 0.0313355623116632 -170.9113329544  0.0313355623116631 -170.9113329544  0.959200300722721 146.402210843281 
! Gamma         0                0                0                0                
! Port Impedance         50               0                50               0                
2.042                          0.959497699529534 146.159504890977 0.0313308829359397 -171.207750032608 0.0313308829359397 -171.207750032609 0.959150679102283 146.182412004508 
! Gamma         0                0                0                0                
! Port Impedance         50               0                50               0                
2.044                          0.959448062991041 145.939538528001 0.0313260377943515 -171.504394305697 0.0313260377943514 -171.504394305697 0.959100969293409 145.962542448199 
! Gamma         0                0                0                0                
! Port Impedance         50               0                50               0                
2.046                          0.95939833793864 145.719501054307 0.0313210263060792 -171.801268290409 0.0313210263060791 -171.801268290409 0.959051170615832 145.742602034629 
! Gamma         0                0                0                0                
! Port Impedance         50               0                50               0                
2.048                          0.95934852371698 145.49939232915  0.0313158478878171 -172.098374532085 0.031315847887817 -172.098374532085 0.959001282387934 145.522590624193 
! Gamma         0                0                0                0                
! Port Impedance         50               0                50               0                
2.05                           0.959298619669349 145.279212211898 0.0313105019537689 -172.395715605069 0.0313105019537689 -172.395715605069 0.958951303926731 145.302508077399 
! Gamma         0                0                0                0                
! Port Impedance         50               0                50               0                
2.052                          0.959248625137667 145.058960562021 0.0313049879156444 -172.693294113123 0.0313049879156443 -172.693294113123 0.958901234547865 145.082354254866 
! Gamma         0                0                0                0                
! Port Impedance         50               0                50               0                
2.054                          0.95919853946247 144.83863723909  0.0312993051826564 -172.991112689849 0.0312993051826564 -172.99111268985 0.958851073565594 144.862129017316 
! Gamma         0                0                0                0                
! Port Impedance         50               0                50               0                
2.056                          0.959148361982903 144.618242102773 0.0312934531615188 -173.289173999118 0.0312934531615188 -173.289173999119 0.958800820292779 144.641832225568 
! Gamma         0                0                0                0                
! Port Impedance         50               0                50               0                
2.058                          0.959098092036704 144.397775012823 0.0312874312564447 -173.587480735502 0.0312874312564446 -173.587480735502 0.958750474040873 144.421463740536 
! Gamma         0                0                0                0                
! Port Impedance         50               0                50               0                
2.06                           0.959047728960193 144.17723582908  0.0312812388691451 -173.886035624718 0.0312812388691451 -173.886035624718 0.958700034119909 144.201023423223 
! Gamma         0                0                0                0                
! Port Impedance         50               0                50               0                
2.062                          0.958997272088256 143.956624411463 0.0312748753988291 -174.184841424076 0.0312748753988291 -174.184841424076 0.958649499838485 143.980511134713 
! Gamma         0                0                0                0                
! Port Impedance         50               0                50               0                
2.064                          0.958946720754338 143.73594061996  0.0312683402422034 -174.48390092294 0.0312683402422034 -174.48390092294 0.958598870503752 143.759926736168 
! Gamma         0                0                0                0                
! Port Impedance         50               0                50               0                
2.066                          0.958896074290419 143.51518431463  0.0312616327934735 -174.783216943187 0.0312616327934735 -174.783216943187 0.958548145421402 143.539270088819 
! Gamma         0                0                0                0                
! Port Impedance         50               0                50               0                
2.068                          0.958845332027007 143.294355355591 0.0312547524443454 -175.082792339681 0.0312547524443454 -175.082792339682 0.958497323895651 143.318541053965 
! Gamma         0                0                0                0                
! Port Impedance         50               0                50               0                
2.07                           0.95879449329312 143.073453603016 0.0312476985840278 -175.382630000756 0.0312476985840278 -175.382630000757 0.958446405229225 143.097739492962 
! Gamma         0                0                0                0                
! Port Impedance         50               0                50               0                
2.072                          0.958743557416269 142.852478917128 0.0312404705992351 -175.682732848699 0.031240470599235 -175.6827328487  0.958395388723345 142.87686526722  
! Gamma         0                0                0                0                
! Port Impedance         50               0                50               0                
2.074                          0.958692523722445 142.631431158192 0.0312330678741916 -175.983103840249 0.0312330678741916 -175.983103840249 0.958344273677709 142.655918238195 
! Gamma         0                0                0                0                
! Port Impedance         50               0                50               0                
2.076                          0.958641391536095 142.410310186507 0.031225489790636 -176.2837459671  0.031225489790636 -176.2837459671  0.95829305939048 142.434898267384 
! Gamma         0                0                0                0                
! Port Impedance         50               0                50               0                
2.078                          0.958590160180114 142.189115862406 0.031217735727827 -176.584662256414 0.031217735727827 -176.584662256414 0.958241745158263 142.213805216318 
! Gamma         0                0                0                0                
! Port Impedance         50               0                50               0                
2.08                           0.958538828975818 141.967848046241 0.0312098050625498 -176.885855771343 0.0312098050625498 -176.885855771344 0.958190330276091 141.992638946554 
! Gamma         0                0                0                0                
! Port Impedance         50               0                50               0                
2.082                          0.958487397242932 141.74650659838  0.0312016971691233 -177.18732961156 0.0312016971691232 -177.18732961156 0.958138814037409 141.77139931967  
! Gamma         0                0                0                0                
! Port Impedance         50               0                50               0                
2.084                          0.958435864299566 141.525091379203 0.0311934114194085 -177.489086913794 0.0311934114194085 -177.489086913795 0.958087195734046 141.550086197257 
! Gamma         0                0                0                0                
! Port Impedance         50               0                50               0                
2.086                          0.958384229462197 141.30360224909  0.0311849471828179 -177.791130852384 0.0311849471828179 -177.791130852384 0.958035474656206 141.328699440913 
! Gamma         0                0                0                0                
! Port Impedance         50               0                50               0                
2.088                          0.958332492045649 141.082039068414 0.0311763038263256 -178.093464639831 0.0311763038263256 -178.093464639831 0.957983650092442 141.107238912233 
! Gamma         0                0                0                0                
! Port Impedance         50               0                50               0                
2.09                           0.95828065136307 140.860401697539 0.0311674807144787 -178.396091527369 0.0311674807144787 -178.396091527369 0.957931721329635 140.885704472805 
! Gamma         0                0                0                0                
! Port Impedance         50               0                50               0                
2.092                          0.958228706725909 140.638689996804 0.0311584772094098 -178.699014805538 0.0311584772094098 -178.699014805538 0.957879687652975 140.664095984201 
! Gamma         0                0                0                0                
! Port Impedance         50               0                50               0                
2.094                          0.958176657443899 140.416903826524 0.0311492926708504 -179.002237804775 0.0311492926708504 -179.002237804775 0.957827548345937 140.442413307969 
! Gamma         0                0                0                0                
! Port Impedance         50               0                50               0                
2.096                          0.958124502825027 140.195043046976 0.0311399264561456 -179.305763896005 0.0311399264561456 -179.305763896005 0.957775302690259 140.220656305625 
! Gamma         0                0                0                0                
! Port Impedance         50               0                50               0                
2.098                          0.958072242175513 139.973107518392 0.0311303779202702 -179.609596491253 0.0311303779202702 -179.609596491253 0.957722949965917 139.998824838646 
! Gamma         0                0                0                0                
! Port Impedance         50               0                50               0                
2.1                            0.958019874799786 139.751097100955 0.0311206464158456 -179.913739044256 0.0311206464158456 -179.913739044256 0.957670489451101 139.77691876846  
! Gamma         0                0                0                0                
! Port Impedance         50               0                50               0                
2.102                          0.957967400000456 139.529011654783 0.0311107312931584 179.781804948905 0.0311107312931584 179.781804948904 0.957617920422193 139.554937956441 
! Gamma         0                0                0                0                
! Port Impedance         50               0                50               0                
2.104                          0.957914817078289 139.306851039929 0.0311006319001802 179.477031949168 0.0311006319001802 179.477031949168 0.957565242153735 139.332882263897 
! Gamma         0                0                0                0                
! Port Impedance         50               0                50               0                
2.106                          0.957862125332182 139.084615116365 0.0310903475825884 179.171938373843 0.0310903475825884 179.171938373843 0.95751245391841 139.110751552062 
